time	V(in)	V(out)
0.000000000000000e+000	0.000000e+000	4.999999e+000
1.953124995068833e-009	1.953125e-005	5.000000e+000
3.906249990137667e-009	3.906250e-005	5.000002e+000
7.812499980275334e-009	7.812500e-005	5.000006e+000
1.562499996055067e-008	1.562500e-004	5.000016e+000
5.848214270948966e-007	5.848214e-003	5.000147e+000
1.154017854229243e-006	1.154018e-002	5.000245e+000
1.723214281363588e-006	1.723214e-002	5.000310e+000
2.292410708497934e-006	2.292411e-002	5.000343e+000
2.861607135632280e-006	2.861607e-002	5.000342e+000
3.430803562766626e-006	3.430803e-002	5.000309e+000
3.999999989900971e-006	4.000000e-002	5.000244e+000
1.279999996768311e-004	1.280000e+000	5.000244e+000
1.402070309268311e-004	1.402070e+000	4.989982e+000
1.646210934268311e-004	1.646211e+000	4.820236e+000
1.717839940256547e-004	1.717840e+000	4.553193e+000
1.778378901866222e-004	1.778379e+000	4.075861e+000
1.837545424679139e-004	1.837545e+000	3.425341e+000
1.917932628408499e-004	1.917933e+000	2.336583e+000
1.997104686121355e-004	1.997105e+000	1.125611e+000
2.030704105984726e-004	2.030704e+000	6.002358e-001
2.046817867240732e-004	2.046818e+000	3.963356e-001
2.053608568411326e-004	2.053609e+000	3.519102e-001
2.060053920755193e-004	2.060054e+000	3.348807e-001
2.065892518419054e-004	2.065892e+000	3.226889e-001
2.072085303235967e-004	2.072085e+000	3.114772e-001
2.079961925217555e-004	2.079962e+000	2.992330e-001
2.088204991576920e-004	2.088205e+000	2.880582e-001
2.100972593733024e-004	2.100973e+000	2.732295e-001
2.114496688484498e-004	2.114497e+000	2.598374e-001
2.135574754253691e-004	2.135575e+000	2.423476e-001
2.157533362491454e-004	2.157533e+000	2.270757e-001
2.184923494386185e-004	2.184923e+000	2.112749e-001
2.216031159579839e-004	2.216031e+000	1.964010e-001
2.258059081823338e-004	2.258059e+000	1.797659e-001
2.296722079218784e-004	2.296722e+000	1.672292e-001
2.361452422914220e-004	2.361452e+000	1.502210e-001
2.423865177791559e-004	2.423865e+000	1.372489e-001
2.548690687546237e-004	2.548691e+000	1.174007e-001
2.661130170362841e-004	2.661130e+000	1.040819e-001
2.880566989747896e-004	2.880567e+000	8.565695e-002
3.093343240893743e-004	3.093343e+000	7.302516e-002
3.434935842236924e-004	3.434936e+000	5.853973e-002
3.532643270494676e-004	3.532643e+000	5.524982e-002
3.661463733605254e-004	3.661464e+000	5.172965e-002
3.867118189401064e-004	3.867118e+000	4.714645e-002
4.130510693378244e-004	4.130511e+000	4.236625e-002
4.473214992045640e-004	4.473215e+000	3.743344e-002
4.548471866953398e-004	4.676368e+000	5.962478e-002
4.623728741861156e-004	4.836887e+000	7.412748e-002
4.698985616768915e-004	4.954774e+000	8.094153e-002
4.774242491676673e-004	5.030027e+000	8.006692e-002
4.849499366584431e-004	5.062647e+000	7.150366e-002
4.924756241492190e-004	5.052633e+000	5.525176e-002
5.000013116399948e-004	4.999987e+000	3.131120e-002
5.000026223599895e-004	4.999974e+000	3.130798e-002
5.000052437999791e-004	4.999948e+000	3.130428e-002
5.000104866799581e-004	4.999895e+000	3.130157e-002
5.000209724399162e-004	4.999790e+000	3.130111e-002
5.170961693599422e-004	4.829038e+000	3.296328e-002
5.341713662799681e-004	4.658286e+000	3.489683e-002
5.512465631999941e-004	4.487534e+000	3.710174e-002
5.683217601200200e-004	4.316782e+000	3.957803e-002
5.853969570400459e-004	4.146030e+000	4.232569e-002
6.024721539600719e-004	3.975278e+000	4.534472e-002
6.195473508800978e-004	3.804527e+000	4.863512e-002
6.388575878479822e-004	3.611424e+000	5.313798e-002
6.544229404622294e-004	3.455770e+000	5.753179e-002
6.644072054818098e-004	3.355928e+000	6.085789e-002
6.704848642680221e-004	3.295151e+000	6.315215e-002
6.826401818404466e-004	3.173598e+000	6.842373e-002
7.021828877170097e-004	2.978171e+000	7.953332e-002
7.321178102011929e-004	2.678822e+000	1.041594e-001
7.529776924992965e-004	2.470223e+000	1.314590e-001
7.680919018184839e-004	2.319081e+000	1.639530e-001
7.784379918607390e-004	2.215620e+000	1.999617e-001
7.856346609721251e-004	2.143653e+000	2.405602e-001
7.907988348766446e-004	2.092012e+000	2.866990e-001
7.933604919476365e-004	2.066395e+000	3.236485e-001
7.950506748792839e-004	2.049493e+000	3.641594e-001
7.961419720752017e-004	2.038580e+000	4.173127e-001
7.969546183815067e-004	2.030454e+000	4.994464e-001
7.977985560025510e-004	2.022014e+000	6.274604e-001
7.993661089252520e-004	2.006339e+000	8.942227e-001
8.010761499492589e-004	1.989239e+000	1.179467e+000
8.044962319972728e-004	1.955038e+000	1.728085e+000
8.105560069771642e-004	1.894440e+000	2.634468e+000
8.162273531131705e-004	1.837726e+000	3.386346e+000
8.223280299187837e-004	1.776720e+000	4.040573e+000
8.301619753940900e-004	1.698380e+000	4.627673e+000
8.377390682064762e-004	1.622609e+000	4.921608e+000
8.446992425004226e-004	1.553008e+000	4.996772e+000
8.489788048924358e-004	1.510212e+000	4.999781e+000
9.535428042457282e-004	4.645720e-001	4.999760e+000
1.000000001000000e-003	0.000000e+000	5.000507e+000
1.001100857619603e-003	1.100857e-002	5.000345e+000
1.003302570858809e-003	3.302570e-002	5.000246e+000
1.139808791689561e-003	1.398088e+000	5.000252e+000
1.152015822939561e-003	1.520158e+000	4.990343e+000
1.163693544803019e-003	1.636935e+000	4.906840e+000
1.168758741049391e-003	1.687587e+000	4.750250e+000
1.173828746826533e-003	1.738287e+000	4.430805e+000
1.179134742398814e-003	1.791347e+000	3.947568e+000
1.186166212696329e-003	1.861662e+000	3.087357e+000
1.200229153291360e-003	2.002291e+000	1.034620e+000
1.204266538508828e-003	2.042665e+000	4.619411e-001
1.205662642523538e-003	2.056626e+000	3.484387e-001
1.206949368207020e-003	2.069494e+000	3.165549e-001
1.207598166856585e-003	2.075982e+000	3.051830e-001
1.208722766669376e-003	2.087228e+000	2.890410e-001
1.210300368158490e-003	2.103004e+000	2.705802e-001
1.212512358666090e-003	2.125124e+000	2.500634e-001
1.214971921815291e-003	2.149719e+000	2.318016e-001
1.216619355984130e-003	2.166193e+000	2.214575e-001
1.218978697617486e-003	2.189787e+000	2.084927e-001
1.221325795132118e-003	2.213258e+000	1.973338e-001
1.224644022868677e-003	2.246440e+000	1.838027e-001
1.227792579259746e-003	2.277926e+000	1.729234e-001
1.233186018357111e-003	2.331860e+000	1.573817e-001
1.238368909332731e-003	2.383689e+000	1.452689e-001
1.248734691283971e-003	2.487347e+000	1.262817e-001
1.258410542657634e-003	2.584105e+000	1.127083e-001
1.275291668123324e-003	2.752917e+000	9.536887e-002
1.292999155131739e-003	2.929991e+000	8.218470e-002
1.321028609068866e-003	3.210286e+000	6.696437e-002
1.332210808172267e-003	3.322108e+000	6.216590e-002
1.347563381518413e-003	3.475634e+000	5.691237e-002
1.353300513379503e-003	3.533005e+000	5.521059e-002
1.359037645240593e-003	3.590376e+000	5.360294e-002
1.364774777101684e-003	3.647748e+000	5.208943e-002
1.370511908962774e-003	3.705119e+000	5.067005e-002
1.376249040823864e-003	3.762490e+000	4.934480e-002
1.381986172684955e-003	3.819862e+000	4.811369e-002
1.387723304546045e-003	3.877233e+000	4.697672e-002
1.418114155233513e-003	4.181141e+000	4.145307e-002
1.439218299625066e-003	4.392183e+000	3.821539e-002
1.462853175816344e-003	4.628532e+000	3.514980e-002
1.495253489611977e-003	4.952535e+000	3.174911e-002
1.500000001000002e-003	5.000000e+000	3.129209e-002
1.500000001700002e-003	5.000000e+000	3.129209e-002
1.500000750714285e-003	4.999993e+000	3.129444e-002
1.500001499728568e-003	4.999985e+000	3.129637e-002
1.500002248742850e-003	4.999978e+000	3.129788e-002
1.500002997757133e-003	4.999970e+000	3.129897e-002
1.500003746771416e-003	4.999963e+000	3.129965e-002
1.500004495785698e-003	4.999955e+000	3.129990e-002
1.500005244799981e-003	4.999948e+000	3.129974e-002
1.500010487679960e-003	4.999895e+000	3.130048e-002
1.500020973439918e-003	4.999790e+000	3.130109e-002
1.517039589825949e-003	4.829604e+000	3.295785e-002
1.534058206211980e-003	4.659418e+000	3.488330e-002
1.551076822598010e-003	4.489232e+000	3.707746e-002
1.568095438984041e-003	4.319045e+000	3.954031e-002
1.585114055370072e-003	4.148859e+000	4.227187e-002
1.602132671756102e-003	3.978673e+000	4.527212e-002
1.619151288142133e-003	3.808487e+000	4.854108e-002
1.638360259840190e-003	3.616397e+000	5.300353e-002
1.653872744062414e-003	3.461272e+000	5.735745e-002
1.659191313943218e-003	3.408087e+000	5.903029e-002
1.664509883824023e-003	3.354901e+000	6.087022e-002
1.669828453704827e-003	3.301715e+000	6.287725e-002
1.675147023585631e-003	3.248530e+000	6.505136e-002
1.680465593466435e-003	3.195344e+000	6.739256e-002
1.685784163347240e-003	3.142158e+000	6.990085e-002
1.691102733228044e-003	3.088973e+000	7.257622e-002
1.711383473148773e-003	2.886165e+000	8.570600e-002
1.739847528362154e-003	2.601525e+000	1.129224e-001
1.758594124614764e-003	2.414059e+000	1.417551e-001
1.772057153842405e-003	2.279428e+000	1.757746e-001
1.781124722710729e-003	2.188753e+000	2.131409e-001
1.787856324838430e-003	2.121437e+000	2.581338e-001
1.792084633409252e-003	2.079154e+000	3.038619e-001
1.794301529243428e-003	2.056985e+000	3.442665e-001
1.795756680562294e-003	2.042433e+000	3.962183e-001
1.796693011712453e-003	2.033070e+000	4.734724e-001
1.797804777660442e-003	2.021952e+000	6.294184e-001
1.798728365388362e-003	2.012716e+000	7.851250e-001
1.800976298961916e-003	1.990237e+000	1.164217e+000
1.803149078268284e-003	1.968509e+000	1.518249e+000
1.807494636881019e-003	1.925054e+000	2.191483e+000
1.813113080461879e-003	1.868869e+000	2.987901e+000
1.819081323908396e-003	1.809187e+000	3.702816e+000
1.827358209994909e-003	1.726418e+000	4.438007e+000
1.835535043564903e-003	1.644650e+000	4.848441e+000
1.843953431099661e-003	1.560466e+000	4.990011e+000
1.847947684446228e-003	1.520523e+000	4.999813e+000
1.945277094742363e-003	5.472291e-001	4.999753e+000
2.000000002000002e-003	2.664535e-015	4.998614e+000
2.001100722207221e-003	1.100720e-002	4.999616e+000
2.003302162621660e-003	3.302161e-002	5.000227e+000
2.139791468316860e-003	1.397915e+000	5.000192e+000
2.151998499566861e-003	1.519985e+000	4.990398e+000
2.163676804909695e-003	1.636768e+000	4.907224e+000
2.168748004762645e-003	1.687480e+000	4.750764e+000
2.173813584057805e-003	1.738136e+000	4.431998e+000
2.179117821737439e-003	1.791178e+000	3.949265e+000
2.186154308711138e-003	1.861543e+000	3.088763e+000
2.200227282658536e-003	2.002273e+000	1.034892e+000
2.204266701381036e-003	2.042667e+000	4.619724e-001
2.205663636376457e-003	2.056636e+000	3.484135e-001
2.206950427902298e-003	2.069504e+000	3.165359e-001
2.207599365889211e-003	2.075994e+000	3.051641e-001
2.208723787857670e-003	2.087238e+000	2.890278e-001
2.210300834329570e-003	2.103008e+000	2.705751e-001
2.212511495170824e-003	2.125115e+000	2.500704e-001
2.214969465121555e-003	2.149695e+000	2.318179e-001
2.216616061980604e-003	2.166161e+000	2.214769e-001
2.218973866700552e-003	2.189739e+000	2.085172e-001
2.221320352109798e-003	2.213203e+000	1.973579e-001
2.224636701595523e-003	2.246367e+000	1.838298e-001
2.227783393318339e-003	2.277834e+000	1.729528e-001
2.233173027114808e-003	2.331730e+000	1.574152e-001
2.238352061710992e-003	2.383521e+000	1.453050e-001
2.248710130903360e-003	2.487101e+000	1.263201e-001
2.258378013913445e-003	2.583780e+000	1.127487e-001
2.275254042472742e-003	2.752540e+000	9.540195e-002
2.292952876532905e-003	2.929529e+000	8.221440e-002
2.320972070535722e-003	3.209721e+000	6.698832e-002
2.332146250676150e-003	3.321462e+000	6.218961e-002
2.347486997214491e-003	3.474870e+000	5.693587e-002
2.356678130594949e-003	3.566781e+000	5.429355e-002
2.365869263975408e-003	3.658693e+000	5.184856e-002
2.375060397355866e-003	3.750604e+000	4.960091e-002
2.384251530736324e-003	3.842515e+000	4.755060e-002
2.393442664116782e-003	3.934427e+000	4.569762e-002
2.402633797497241e-003	4.026338e+000	4.404198e-002
2.411824930877699e-003	4.118249e+000	4.258368e-002
2.445763522499733e-003	4.457635e+000	3.764752e-002
2.500000002100004e-003	5.000000e+000	3.131734e-002
2.500000751200001e-003	4.999993e+000	3.131422e-002
2.500001500299998e-003	4.999985e+000	3.131152e-002
2.500002249399995e-003	4.999978e+000	3.130926e-002
2.500002998499992e-003	4.999970e+000	3.130743e-002
2.500003747599989e-003	4.999963e+000	3.130604e-002
2.500004496699986e-003	4.999955e+000	3.130508e-002
2.500005245799983e-003	4.999948e+000	3.130455e-002
2.500010488679962e-003	4.999895e+000	3.130163e-002
2.500020974439920e-003	4.999790e+000	3.130111e-002
2.517024481140834e-003	4.829755e+000	3.295643e-002
2.534027987841749e-003	4.659720e+000	3.487972e-002
2.551031494542663e-003	4.489685e+000	3.707099e-002
2.568035001243577e-003	4.319650e+000	3.953024e-002
2.585038507944492e-003	4.149615e+000	4.225746e-002
2.602042014645406e-003	3.979580e+000	4.525266e-002
2.619045521346320e-003	3.809545e+000	4.851583e-002
2.638216055055367e-003	3.617840e+000	5.296462e-002
2.653710450744358e-003	3.462896e+000	5.730631e-002
2.658793205596049e-003	3.412068e+000	5.890290e-002
2.663875960447741e-003	3.361240e+000	6.064737e-002
2.668958715299432e-003	3.310413e+000	6.253973e-002
2.674041470151123e-003	3.259585e+000	6.457997e-002
2.679124225002814e-003	3.208758e+000	6.676809e-002
2.684206979854506e-003	3.157930e+000	6.910410e-002
2.689289734706197e-003	3.107103e+000	7.158799e-002
2.707900942617283e-003	2.920991e+000	8.330976e-002
2.739016647041981e-003	2.609833e+000	1.122009e-001
2.758299840991321e-003	2.417002e+000	1.413100e-001
2.772069662927422e-003	2.279303e+000	1.759365e-001
2.781225024022323e-003	2.187750e+000	2.137388e-001
2.787947948267023e-003	2.120521e+000	2.589099e-001
2.792118957774075e-003	2.078810e+000	3.043386e-001
2.794324967845211e-003	2.056750e+000	3.448398e-001
2.795771280722280e-003	2.042287e+000	3.970264e-001
2.796704183337402e-003	2.032958e+000	4.745708e-001
2.797803803402280e-003	2.021962e+000	6.292316e-001
2.798715091954021e-003	2.012849e+000	7.828867e-001
2.800967654466381e-003	1.990324e+000	1.162756e+000
2.803171960428794e-003	1.968280e+000	1.521807e+000
2.807580572353620e-003	1.924194e+000	2.204327e+000
2.813177109268586e-003	1.868229e+000	2.996603e+000
2.819138596612854e-003	1.808614e+000	3.709298e+000
2.827400170500322e-003	1.725998e+000	4.441469e+000
2.835546978048418e-003	1.644530e+000	4.848977e+000
2.843991313135832e-003	1.560087e+000	4.990085e+000
2.847985882062650e-003	1.520141e+000	4.999813e+000
2.945494075329211e-003	5.450593e-001	4.999753e+000
3.000000003000004e-003	0.000000e+000	4.998612e+000
3.001100724215472e-003	1.100721e-002	4.999616e+000
3.003302166646406e-003	3.302164e-002	5.000227e+000
3.139791597364355e-003	1.397916e+000	5.000192e+000
3.151998628614356e-003	1.519986e+000	4.990398e+000
3.163676907960354e-003	1.636769e+000	4.907222e+000
3.168748073352298e-003	1.687481e+000	4.750761e+000
3.173813685874635e-003	1.738137e+000	4.431991e+000
3.179117938448361e-003	1.791179e+000	3.949254e+000
3.186154411670915e-003	1.861544e+000	3.088750e+000
3.200227358116025e-003	2.002274e+000	1.034883e+000
3.204266752931340e-003	2.042667e+000	4.619685e-001
3.205663673085215e-003	2.056637e+000	3.484120e-001
3.206950410778255e-003	2.069504e+000	3.165361e-001
3.207599343267107e-003	2.075993e+000	3.051645e-001
3.208723744520570e-003	2.087237e+000	2.890283e-001
3.210300776596869e-003	2.103008e+000	2.705758e-001
3.212511452901181e-003	2.125114e+000	2.500708e-001
3.214969477125708e-003	2.149695e+000	2.318179e-001
3.216616114325006e-003	2.166161e+000	2.214766e-001
3.218974016715784e-003	2.189740e+000	2.085165e-001
3.221320556030539e-003	2.213206e+000	1.973570e-001
3.224637057718586e-003	2.246371e+000	1.838285e-001
3.227783881066297e-003	2.277839e+000	1.729513e-001
3.233173764051099e-003	2.331738e+000	1.574133e-001
3.238353050870779e-003	2.383530e+000	1.453029e-001
3.248711624510139e-003	2.487116e+000	1.263178e-001
3.258379954016896e-003	2.583800e+000	1.127463e-001
3.275256348298707e-003	2.752563e+000	9.539993e-002
3.292955725217995e-003	2.929557e+000	8.221257e-002
3.320975421886876e-003	3.209754e+000	6.698689e-002
3.332149961691072e-003	3.321500e+000	6.218825e-002
3.347491272196513e-003	3.474913e+000	5.693456e-002
3.356718361256262e-003	3.567184e+000	5.428334e-002
3.365945450316011e-003	3.659454e+000	5.183027e-002
3.375172539375760e-003	3.751725e+000	4.957535e-002
3.384399628435509e-003	3.843996e+000	4.751857e-002
3.393626717495258e-003	3.936267e+000	4.565994e-002
3.402853806555007e-003	4.028538e+000	4.399946e-002
3.412080895614756e-003	4.120809e+000	4.253712e-002
3.445492132986968e-003	4.454921e+000	3.767865e-002
3.500000003100006e-003	5.000000e+000	3.131734e-002
3.500000752199678e-003	4.999993e+000	3.131422e-002
3.500001501299350e-003	4.999985e+000	3.131152e-002
3.500002250399022e-003	4.999978e+000	3.130926e-002
3.500002999498695e-003	4.999970e+000	3.130743e-002
3.500003748598367e-003	4.999963e+000	3.130604e-002
3.500004497698039e-003	4.999955e+000	3.130508e-002
3.500005246797711e-003	4.999948e+000	3.130455e-002
3.500010489675416e-003	4.999895e+000	3.130163e-002
3.500020975430827e-003	4.999790e+000	3.130111e-002
3.517025366180070e-003	4.829746e+000	3.295652e-002
3.534029756929313e-003	4.659702e+000	3.487993e-002
3.551034147678556e-003	4.489658e+000	3.707137e-002
3.568038538427800e-003	4.319614e+000	3.953083e-002
3.585042929177043e-003	4.149571e+000	4.225830e-002
3.602047319926286e-003	3.979527e+000	4.525379e-002
3.619051710675529e-003	3.809483e+000	4.851730e-002
3.638224031790308e-003	3.617760e+000	5.296677e-002
3.653719372204610e-003	3.462806e+000	5.730912e-002
3.658814675791238e-003	3.411853e+000	5.890977e-002
3.663909979377866e-003	3.360900e+000	6.065929e-002
3.669005282964494e-003	3.309947e+000	6.255766e-002
3.674100586551122e-003	3.258994e+000	6.460490e-002
3.679195890137750e-003	3.208041e+000	6.680101e-002
3.684291193724378e-003	3.157088e+000	6.914598e-002
3.689386497311006e-003	3.106135e+000	7.163981e-002
3.708086589700748e-003	2.919134e+000	8.343609e-002
3.739078905550003e-003	2.609211e+000	1.122638e-001
3.758332226107218e-003	2.416678e+000	1.413681e-001
3.772082888041880e-003	2.279171e+000	1.759741e-001
3.781230090004712e-003	2.187699e+000	2.137631e-001
3.787951503509171e-003	2.120485e+000	2.589414e-001
3.792121363728771e-003	2.078786e+000	3.043749e-001
3.794326737085687e-003	2.056733e+000	3.448853e-001
3.795772656877513e-003	2.042274e+000	3.971084e-001
3.796705374086388e-003	2.032946e+000	4.746946e-001
3.797803937803954e-003	2.021961e+000	6.292517e-001
3.798714063163803e-003	2.012859e+000	7.827138e-001
3.800967397633268e-003	1.990326e+000	1.162711e+000
3.803174958276303e-003	1.968251e+000	1.522277e+000
3.807590079562373e-003	1.924099e+000	2.205749e+000
3.813184045871860e-003	1.868160e+000	2.997548e+000
3.819144554083338e-003	1.808555e+000	3.709974e+000
3.827404516926348e-003	1.725955e+000	4.441829e+000
3.835547987504539e-003	1.644520e+000	4.849026e+000
3.843995234204198e-003	1.560048e+000	4.990091e+000
3.847989829362985e-003	1.520102e+000	4.999813e+000
3.945517583145974e-003	5.448242e-001	4.999753e+000
4.000000004000005e-003	4.440892e-015	4.998612e+000
4.001100725307926e-003	1.100721e-002	4.999616e+000
4.003302167923767e-003	3.302164e-002	5.000227e+000
4.139791610105923e-003	1.397916e+000	5.000192e+000
4.151998641355923e-003	1.519986e+000	4.990398e+000
4.163676918320146e-003	1.636769e+000	4.907222e+000
4.168748080551257e-003	1.687481e+000	4.750761e+000
4.173813696115963e-003	1.738137e+000	4.431990e+000
4.179117950045622e-003	1.791179e+000	3.949253e+000
4.186154421934167e-003	1.861544e+000	3.088749e+000
4.200227365711257e-003	2.002274e+000	1.034882e+000
4.204266758369494e-003	2.042668e+000	4.619682e-001
4.205663677198096e-003	2.056637e+000	3.484119e-001
4.206950410158343e-003	2.069504e+000	3.165362e-001
4.207599342160228e-003	2.075993e+000	3.051645e-001
4.208723741597028e-003	2.087237e+000	2.890284e-001
4.210300772421229e-003	2.103008e+000	2.705758e-001
4.212511450116550e-003	2.125114e+000	2.500708e-001
4.214969479150588e-003	2.149695e+000	2.318179e-001
4.216616119916490e-003	2.166161e+000	2.214766e-001
4.218974030930534e-003	2.189740e+000	2.085164e-001
4.221320574997207e-003	2.213206e+000	1.973569e-001
4.224637090103415e-003	2.246371e+000	1.838284e-001
4.227783925060130e-003	2.277839e+000	1.729511e-001
4.233173830026090e-003	2.331738e+000	1.574131e-001
4.238353139093996e-003	2.383531e+000	1.453027e-001
