time	V(in)	V(out)
0.000000000000000e+000	0.000000e+000	4.000000e+000
1.999999943436137e-009	1.600000e-005	4.000000e+000
3.999999886872274e-009	3.200000e-005	4.000000e+000
7.999999773744548e-009	6.400000e-005	4.000000e+000
1.599999954748910e-008	1.280000e-004	4.000001e+000
1.183999966514194e-006	9.472000e-003	4.000024e+000
2.351999933480898e-006	1.881600e-002	4.000040e+000
3.519999900447603e-006	2.816000e-002	4.000051e+000
4.687999867414307e-006	3.750400e-002	4.000057e+000
5.855999834381011e-006	4.684800e-002	4.000057e+000
7.023999801347716e-006	5.619200e-002	4.000051e+000
8.191999768314418e-006	6.553600e-002	4.000039e+000
1.310719962930307e-004	1.048576e+000	4.000039e+000
1.717135145590615e-004	1.373708e+000	3.997968e+000
2.046014229873739e-004	1.636811e+000	3.946072e+000
2.207841210027110e-004	1.766273e+000	3.804956e+000
2.366778103121984e-004	1.893422e+000	3.486761e+000
2.545273693083706e-004	2.036219e+000	2.902431e+000
2.902264873007148e-004	2.321812e+000	1.364644e+000
3.004623964831535e-004	2.403699e+000	8.924372e-001
3.061674235769535e-004	2.449339e+000	6.956735e-001
3.122602208395225e-004	2.498082e+000	5.883157e-001
3.158292383126907e-004	2.526634e+000	5.508575e-001
3.201242868779767e-004	2.560994e+000	5.173327e-001
3.287143840085488e-004	2.629715e+000	4.642628e-001
3.364992963756585e-004	2.691994e+000	4.264397e-001
3.477710615653881e-004	2.782168e+000	3.841835e-001
3.603213423269331e-004	2.882571e+000	3.473487e-001
3.773342010864480e-004	3.018674e+000	3.084543e-001
3.935821343743729e-004	3.148657e+000	2.798152e-001
4.226386947205189e-004	3.381109e+000	2.395423e-001
4.393232441270188e-004	3.514586e+000	2.210077e-001
4.454144733477929e-004	3.563316e+000	2.152804e-001
4.515057025685671e-004	3.612046e+000	2.098249e-001
4.575969317893412e-004	3.660775e+000	2.046413e-001
4.636881610101153e-004	3.709505e+000	1.997296e-001
4.697793902308894e-004	3.758235e+000	1.950899e-001
4.758706194516636e-004	3.806965e+000	1.907220e-001
4.819618486724377e-004	3.855695e+000	1.866261e-001
5.000000000000000e-004	4.000000e+000	1.748715e-001
5.005818606366847e-004	3.995345e+000	1.752370e-001
5.017455819100541e-004	3.986035e+000	1.759469e-001
5.180376797372248e-004	3.855699e+000	1.865763e-001
5.366572201111342e-004	3.706742e+000	2.003409e-001
5.587964312914534e-004	3.529629e+000	2.191554e-001
5.650073805515708e-004	3.479941e+000	2.251038e-001
5.712183298116881e-004	3.430253e+000	2.316230e-001
5.774292790718056e-004	3.380566e+000	2.387129e-001
5.836402283319229e-004	3.330878e+000	2.463734e-001
5.898511775920403e-004	3.281191e+000	2.546047e-001
5.960621268521578e-004	3.231503e+000	2.634066e-001
6.022730761122751e-004	3.181815e+000	2.727792e-001
6.227530944639412e-004	3.017975e+000	3.114257e-001
6.525530574842499e-004	2.779576e+000	3.944788e-001
6.751084865583344e-004	2.599132e+000	4.959352e-001
6.873663734129119e-004	2.501069e+000	5.931394e-001
6.950933159201568e-004	2.439254e+000	7.234950e-001
7.008064400852662e-004	2.393548e+000	9.190208e-001
7.064961278558309e-004	2.348031e+000	1.197162e+000
7.113630923355432e-004	2.309095e+000	1.449961e+000
7.169765345655413e-004	2.264188e+000	1.728260e+000
7.282034190255375e-004	2.174373e+000	2.236991e+000
7.479397852064721e-004	2.016482e+000	2.993850e+000
7.686076224708440e-004	1.851139e+000	3.550146e+000
7.958661561507160e-004	1.633071e+000	3.931737e+000
8.114469983733143e-004	1.508424e+000	3.998787e+000
8.206331238012159e-004	1.434935e+000	3.999967e+000
8.309100923406782e-004	1.352719e+000	3.999945e+000
9.269229046437404e-004	5.846168e-001	3.999964e+000
1.000000001000000e-003	0.000000e+000	4.000411e+000
1.001375649475869e-003	1.100519e-002	4.000188e+000
1.004126946427608e-003	3.301556e-002	4.000045e+000
1.086665854979759e-003	6.933268e-001	4.000039e+000
1.174707357435388e-003	1.397659e+000	3.957977e+000
1.218889356276132e-003	1.751115e+000	3.747389e+000
1.240341651285056e-003	1.922733e+000	3.363683e+000
1.261818403003224e-003	2.094547e+000	2.645959e+000
1.284908578140645e-003	2.279269e+000	1.644246e+000
1.295916498808172e-003	2.367332e+000	1.096728e+000
1.301730413464838e-003	2.413843e+000	8.107389e-001
1.304733480637906e-003	2.437868e+000	7.081667e-001
1.309360171814857e-003	2.474881e+000	6.222371e-001
1.311921213201593e-003	2.495370e+000	5.893378e-001
1.315673369602492e-003	2.525387e+000	5.525362e-001
1.320406233263808e-003	2.563250e+000	5.146154e-001
1.325637814362143e-003	2.605103e+000	4.806555e-001
1.333375169656895e-003	2.667001e+000	4.402184e-001
1.341692270159340e-003	2.733538e+000	4.051670e-001
1.352565527143159e-003	2.820524e+000	3.685856e-001
1.364769641068695e-003	2.918157e+000	3.358862e-001
1.381864333562613e-003	3.054915e+000	2.995342e-001
1.397713569746136e-003	3.181709e+000	2.731476e-001
1.426072180786284e-003	3.408577e+000	2.355810e-001
1.442499595824614e-003	3.539997e+000	2.179660e-001
1.450973967488934e-003	3.607792e+000	2.102217e-001
1.455978102734040e-003	3.647825e+000	2.059959e-001
1.460982237979145e-003	3.687858e+000	2.019253e-001
1.465986373224251e-003	3.727891e+000	1.980097e-001
1.470990508469356e-003	3.767924e+000	1.942493e-001
1.475994643714462e-003	3.807957e+000	1.906440e-001
1.480998778959567e-003	3.847990e+000	1.871939e-001
1.486002914204673e-003	3.888023e+000	1.838989e-001
1.500000001000002e-003	4.000000e+000	1.748150e-001
1.500567431726536e-003	3.995461e+000	1.752090e-001
1.501702293179605e-003	3.986382e+000	1.759207e-001
1.517590353522566e-003	3.859277e+000	1.862608e-001
1.535748136771664e-003	3.714015e+000	1.996100e-001
1.557722654084205e-003	3.538219e+000	2.181351e-001
1.564876071050643e-003	3.480991e+000	2.248377e-001
1.572029488017081e-003	3.423764e+000	2.323487e-001
1.579182904983519e-003	3.366537e+000	2.406681e-001
1.586336321949957e-003	3.309309e+000	2.497958e-001
1.593489738916395e-003	3.252082e+000	2.597318e-001
1.600643155882832e-003	3.194855e+000	2.704762e-001
1.607796572849270e-003	3.137627e+000	2.820290e-001
1.633222819602182e-003	2.934217e+000	3.365668e-001
1.661846245922365e-003	2.705230e+000	4.316814e-001
1.681831433577843e-003	2.545349e+000	5.441967e-001
1.691674531590228e-003	2.466604e+000	6.537371e-001
1.698533768788332e-003	2.411730e+000	8.281369e-001
1.704527846424057e-003	2.363777e+000	1.093720e+000
1.709251972401921e-003	2.325984e+000	1.341459e+000
1.714238362597640e-003	2.286093e+000	1.594415e+000
1.722832152597189e-003	2.217343e+000	2.007780e+000
1.732264721427486e-003	2.141882e+000	2.424194e+000
1.746585271379151e-003	2.027318e+000	2.974119e+000
1.761313579780253e-003	1.909491e+000	3.396417e+000
1.789976901367328e-003	1.680185e+000	3.877116e+000
1.808159706900283e-003	1.534722e+000	3.993633e+000
1.817380287270429e-003	1.460958e+000	3.999954e+000
1.827018379731595e-003	1.383853e+000	3.999993e+000
1.846294564653926e-003	1.229643e+000	3.999954e+000
1.918599912687357e-003	6.512007e-001	3.999956e+000
2.000000002000002e-003	1.776357e-015	3.999099e+000
2.001375607988374e-003	1.100485e-002	3.999662e+000
2.004126819965117e-003	3.301454e-002	4.000024e+000
2.086663179267423e-003	6.933054e-001	4.000039e+000
2.174701962523215e-003	1.397616e+000	3.957172e+000
2.219083979044346e-003	1.752672e+000	3.744194e+000
2.240505843907752e-003	1.924047e+000	3.359110e+000
2.262057533668056e-003	2.096460e+000	2.637509e+000
2.284687600441929e-003	2.277501e+000	1.655775e+000
2.295651472141167e-003	2.365212e+000	1.110353e+000
2.301537171800223e-003	2.412297e+000	8.189805e-001
2.304576949958337e-003	2.436615e+000	7.132551e-001
2.309379846277195e-003	2.475039e+000	6.221223e-001
2.311892455465481e-003	2.495140e+000	5.896310e-001
2.315670190444415e-003	2.525362e+000	5.526696e-001
2.320787518324841e-003	2.566300e+000	5.120811e-001
2.326396573068746e-003	2.611173e+000	4.764172e-001
2.334764048727875e-003	2.678112e+000	4.340499e-001
2.343798159349318e-003	2.750385e+000	3.974924e-001
2.355246779064227e-003	2.841974e+000	3.607991e-001
2.368332285985805e-003	2.946658e+000	3.275864e-001
2.386194029391969e-003	3.089552e+000	2.917092e-001
2.402764063694027e-003	3.222112e+000	2.653275e-001
2.425329140270379e-003	3.402633e+000	2.361279e-001
2.440144803687578e-003	3.521158e+000	2.201989e-001
2.447653673168097e-003	3.581229e+000	2.131598e-001
2.454232880789199e-003	3.633863e+000	2.075013e-001
2.460812088410301e-003	3.686497e+000	2.020928e-001
2.467391296031404e-003	3.739130e+000	1.969343e-001
2.473970503652507e-003	3.791764e+000	1.920259e-001
2.480549711273609e-003	3.844398e+000	1.873674e-001
2.487128918894712e-003	3.897031e+000	1.829590e-001
2.493708126515814e-003	3.949665e+000	1.788005e-001
2.500000002000004e-003	4.000000e+000	1.750204e-001
2.500629189548423e-003	3.994967e+000	1.753164e-001
2.501887564645261e-003	3.984900e+000	1.760329e-001
2.519504816000992e-003	3.843961e+000	1.876213e-001
2.539638817550399e-003	3.682889e+000	2.026928e-001
2.558998905076369e-003	3.528009e+000	2.193312e-001
2.565620906066527e-003	3.475033e+000	2.256446e-001
2.572242907056686e-003	3.422057e+000	2.326412e-001
2.578864908046844e-003	3.369081e+000	2.403208e-001
2.585486909037003e-003	3.316105e+000	2.486836e-001
2.592108910027161e-003	3.263129e+000	2.577296e-001
2.598730911017319e-003	3.210153e+000	2.674587e-001
2.605352912007478e-003	3.157177e+000	2.778709e-001
2.630607299102880e-003	2.955142e+000	3.300242e-001
2.659286643946253e-003	2.725707e+000	4.206820e-001
2.680170255324869e-003	2.558638e+000	5.305324e-001
2.690334929754969e-003	2.477321e+000	6.307589e-001
2.697377705736677e-003	2.420978e+000	7.867075e-001
2.702950059842607e-003	2.376400e+000	1.015402e+000
2.708063185608367e-003	2.335495e+000	1.279456e+000
2.713132767551906e-003	2.294938e+000	1.539296e+000
2.720279268707888e-003	2.237766e+000	1.887475e+000
2.730578272783419e-003	2.155374e+000	2.349261e+000
2.745646314063459e-003	2.034830e+000	2.938055e+000
2.760970589402846e-003	1.912235e+000	3.379520e+000
2.791619140081620e-003	1.667047e+000	3.890414e+000
2.808365007347894e-003	1.533080e+000	3.995289e+000
2.817543069991473e-003	1.459656e+000	3.999955e+000
2.827124689247320e-003	1.383003e+000	3.999988e+000
2.846287927759014e-003	1.229697e+000	3.999954e+000
2.924935237560001e-003	6.005181e-001	3.999958e+000
3.000000003000004e-003	0.000000e+000	3.999237e+000
3.001375650178133e-003	1.100518e-002	3.999717e+000
3.004126944534390e-003	3.301553e-002	4.000026e+000
3.086665775222112e-003	6.933262e-001	4.000039e+000
3.174707194622350e-003	1.397658e+000	3.957231e+000
3.219069447304165e-003	1.752556e+000	3.744428e+000
3.240495328732358e-003	1.923963e+000	3.359401e+000
3.262040838428127e-003	2.096327e+000	2.638102e+000
3.284703278350408e-003	2.277626e+000	1.654955e+000
3.295671521345967e-003	2.365372e+000	1.109318e+000
3.301551471301273e-003	2.412412e+000	8.183631e-001
3.304588426183529e-003	2.436707e+000	7.128738e-001
3.309377565933320e-003	2.475020e+000	6.220797e-001
3.311864537941132e-003	2.494916e+000	5.899183e-001
3.315650687633946e-003	2.525205e+000	5.528331e-001
3.320583215251586e-003	2.564666e+000	5.134677e-001
3.326019315501982e-003	2.608155e+000	4.785475e-001
3.334211063286038e-003	2.673688e+000	4.365143e-001
3.343023196072349e-003	2.744185e+000	4.003089e-001
3.354418016611320e-003	2.835344e+000	3.632051e-001
3.367358590868771e-003	2.938869e+000	3.298033e-001
3.384804416015909e-003	3.078435e+000	2.941325e-001
3.400958122964099e-003	3.207665e+000	2.682506e-001
3.429070686674509e-003	3.432565e+000	2.320336e-001
3.442042714781669e-003	3.536342e+000	2.183850e-001
3.448466160871655e-003	3.587729e+000	2.125202e-001
3.454889606961640e-003	3.639117e+000	2.069371e-001
3.461313053051626e-003	3.690504e+000	2.016357e-001
3.467736499141612e-003	3.741892e+000	1.966160e-001
3.474159945231598e-003	3.793280e+000	1.918781e-001
3.480583391321583e-003	3.844667e+000	1.874218e-001
3.487006837411569e-003	3.896055e+000	1.832473e-001
3.500000003000006e-003	4.000000e+000	1.748314e-001
3.500570694259629e-003	3.995435e+000	1.752166e-001
3.501712076778875e-003	3.986303e+000	1.759266e-001
3.517691432048312e-003	3.858469e+000	1.863320e-001
3.535953552356240e-003	3.712372e+000	1.997743e-001
3.557986286396772e-003	3.536110e+000	2.183850e-001
3.563392412448233e-003	3.492861e+000	2.234915e-001
3.568798538499695e-003	3.449612e+000	2.289993e-001
3.574204664551156e-003	3.406363e+000	2.349084e-001
3.579610790602617e-003	3.363114e+000	2.412186e-001
3.585016916654079e-003	3.319865e+000	2.479301e-001
3.590423042705540e-003	3.276616e+000	2.550428e-001
3.595829168757002e-003	3.233367e+000	2.625568e-001
3.615047833028050e-003	3.079617e+000	2.954268e-001
3.641991611592809e-003	2.864067e+000	3.595653e-001
3.666808129895267e-003	2.665535e+000	4.524225e-001
3.683940508618875e-003	2.528476e+000	5.609649e-001
3.692834158515867e-003	2.457327e+000	6.743934e-001
3.699233285006087e-003	2.406134e+000	8.572220e-001
3.706032139847758e-003	2.351743e+000	1.172193e+000
3.710917022229861e-003	2.312664e+000	1.427152e+000
3.716243056180628e-003	2.270056e+000	1.692881e+000
3.726895124082160e-003	2.184839e+000	2.190449e+000
3.738199463068975e-003	2.094404e+000	2.660852e+000
3.755633754026858e-003	1.954930e+000	3.254701e+000
3.773646480402837e-003	1.810828e+000	3.672459e+000
3.797905937883334e-003	1.616753e+000	3.954385e+000
3.811127096592417e-003	1.510983e+000	3.999606e+000
3.819621070338702e-003	1.443031e+000	3.999949e+000
3.828760145930071e-003	1.369919e+000	3.999999e+000
3.847038297112808e-003	1.223694e+000	3.999955e+000
3.911209301196796e-003	7.103256e-001	4.000010e+000
3.936427439908469e-003	5.085805e-001	3.999948e+000
3.966375819051108e-003	2.689935e-001	3.999963e+000
4.000000004000005e-003	3.552714e-015	4.000692e+000
4.001376381364111e-003	1.101102e-002	4.000301e+000
4.004129136092323e-003	3.303306e-002	4.000050e+000
4.086711777938665e-003	6.936942e-001	4.000040e+000
4.174799929241429e-003	1.398399e+000	3.957641e+000
4.218962032276177e-003	1.751696e+000	3.746134e+000
4.240433717511306e-003	1.923470e+000	3.361072e+000
4.261927560064416e-003	2.095420e+000	2.642136e+000
4.284816808686352e-003	2.278534e+000	1.649003e+000
4.295828635897515e-003	2.366629e+000	1.101161e+000
4.301661458608616e-003	2.413292e+000	8.135444e-001
4.304675455902868e-003	2.437404e+000	7.099349e-001
4.309355944649737e-003	2.474848e+000	6.223002e-001
4.311872071244155e-003	2.494977e+000	5.898616e-001
4.315641234346511e-003	2.525130e+000	5.528526e-001
4.320410433901943e-003	2.563283e+000	5.146124e-001
4.325685066907094e-003	2.605480e+000	4.804115e-001
4.333531923232049e-003	2.668255e+000	4.395298e-001
4.341966592053414e-003	2.735733e+000	4.041618e-001
4.352976448036660e-003	2.823812e+000	3.673829e-001
4.365367759112458e-003	2.922942e+000	3.344575e-001
4.382508451835889e-003	3.060068e+000	2.983242e-001
4.398386236399448e-003	3.187090e+000	2.721023e-001
4.426529687747702e-003	3.412237e+000	2.350559e-001
4.442894238170911e-003	3.543154e+000	2.175938e-001
4.449993983189592e-003	3.599952e+000	2.112014e-001
4.457093728208274e-003	3.656750e+000	2.051254e-001
4.464193473226955e-003	3.713548e+000	1.993661e-001
4.471293218245636e-003	3.770346e+000	1.939232e-001
4.478392963264318e-003	3.827144e+000	1.887969e-001
4.485492708282999e-003	3.883942e+000	1.839872e-001
4.492592453301680e-003	3.940740e+000	1.794939e-001
4.500000004000008e-003	4.000000e+000	1.748227e-001
4.500576986629406e-003	3.995384e+000	1.752174e-001
4.501730951888203e-003	3.986152e+000	1.759380e-001
4.517886465511362e-003	3.856908e+000	1.864695e-001
4.536349909652115e-003	3.709201e+000	2.000906e-001
4.558270836502027e-003	3.533833e+000	2.186537e-001
4.563898871553136e-003	3.488809e+000	2.239763e-001
4.569526906604247e-003	3.443785e+000	2.297517e-001
4.575154941655356e-003	3.398760e+000	2.359802e-001
4.580782976706465e-003	3.353736e+000	2.426615e-001
4.586411011757574e-003	3.308712e+000	2.497958e-001
4.592039046808685e-003	3.263688e+000	2.573830e-001
4.597667081859794e-003	3.218663e+000	2.654231e-001
4.619372379706282e-003	3.045021e+000	3.041806e-001
4.646536359339704e-003	2.827709e+000	3.732972e-001
4.670275788723280e-003	2.637794e+000	4.695147e-001
4.685567533679351e-003	2.515460e+000	5.759406e-001
4.693948779301673e-003	2.448410e+000	6.985790e-001
4.700062789253507e-003	2.399498e+000	8.906684e-001
4.706577470928188e-003	2.347380e+000	1.201180e+000
4.711317428492707e-003	2.309461e+000	1.447620e+000
4.716966817660798e-003	2.264266e+000	1.727777e+000
4.728265595996980e-003	2.173875e+000	2.244849e+000
4.744201479790594e-003	2.046388e+000	2.863289e+000
4.768563005229133e-003	1.851496e+000	3.544049e+000
4.793254302705869e-003	1.653966e+000	3.905329e+000
4.816088454845368e-003	1.471292e+000	3.997321e+000
4.826815744371872e-003	1.385474e+000	3.999977e+000
4.838984046465705e-003	1.288128e+000	3.999922e+000
4.861788347793336e-003	1.105693e+000	3.999967e+000
4.888540968792161e-003	8.916723e-001	3.999945e+000
4.940819533321378e-003	4.734438e-001	3.999963e+000
5.000000005000008e-003	0.000000e+000	4.001386e+000
5.001375768118716e-003	1.100610e-002	4.000579e+000
5.004127294356131e-003	3.301831e-002	4.000061e+000
5.009630346830962e-003	7.704274e-002	4.000031e+000
5.086673081478588e-003	6.933846e-001	4.000040e+000
5.174721921075874e-003	1.397775e+000	3.958514e+000
5.218757509406142e-003	1.750060e+000	3.749531e+000
5.240234267096381e-003	1.921874e+000	3.366659e+000
5.261659202354262e-003	2.093274e+000	2.651559e+000
5.285063964511835e-003	2.280512e+000	1.636140e+000
5.296102691578053e-003	2.368821e+000	1.087363e+000
5.301866691518860e-003	2.414933e+000	8.053921e-001
5.304856560761315e-003	2.438853e+000	7.046494e-001
5.309393233368253e-003	2.475146e+000	6.218739e-001
5.312123703128825e-003	2.496989e+000	5.871702e-001
5.315808680637912e-003	2.526469e+000	5.512558e-001
5.320513456239466e-003	2.564108e+000	5.138037e-001
5.325685376906623e-003	2.605483e+000	4.803052e-001
5.333237000550870e-003	2.665896e+000	4.407821e-001
5.341356844525888e-003	2.730855e+000	4.063771e-001
5.351967689827868e-003	2.815742e+000	3.703300e-001
5.363823489992276e-003	2.910588e+000	3.381597e-001
5.380785594347337e-003	3.046285e+000	3.015731e-001
5.396529312833686e-003	3.172235e+000	2.751596e-001
5.428016749806384e-003	3.424134e+000	2.333350e-001
5.441856604234002e-003	3.534853e+000	2.185671e-001
5.449883672608398e-003	3.599069e+000	2.111767e-001
5.455512103986320e-003	3.644097e+000	2.063937e-001
5.461140535364241e-003	3.689124e+000	2.017974e-001
5.466768966742163e-003	3.734152e+000	1.973878e-001
5.472397398120084e-003	3.779179e+000	1.931650e-001
5.478025829498006e-003	3.824207e+000	1.891289e-001
5.483654260875928e-003	3.869234e+000	1.852796e-001
5.489282692253850e-003	3.914262e+000	1.816170e-001
5.500000005000010e-003	4.000000e+000	1.748111e-001
5.500567230675482e-003	3.995462e+000	1.752076e-001
5.501701682026426e-003	3.986387e+000	1.759203e-001
5.517584000939652e-003	3.859328e+000	1.862563e-001
5.535735222554767e-003	3.714118e+000	1.995989e-001
5.557676081699201e-003	3.538591e+000	2.180909e-001
5.564685534232210e-003	3.482516e+000	2.246620e-001
5.571694986765218e-003	3.426440e+000	2.319983e-001
5.578704439298227e-003	3.370364e+000	2.400998e-001
5.585713891831237e-003	3.314289e+000	2.489666e-001
5.592723344364246e-003	3.258213e+000	2.585986e-001
5.599732796897255e-003	3.202138e+000	2.689959e-001
5.606742249430264e-003	3.146062e+000	2.801585e-001
5.631465456525785e-003	2.948276e+000	3.320306e-001
5.660217640251848e-003	2.718259e+000	4.246411e-001
5.680783130834701e-003	2.553735e+000	5.354568e-001
5.690833025377154e-003	2.473336e+000	6.387502e-001
5.697811139212052e-003	2.417511e+000	8.011694e-001
5.703473624749798e-003	2.372211e+000	1.040736e+000
5.708661318942037e-003	2.330709e+000	1.310717e+000
5.713519827077743e-003	2.291842e+000	1.558718e+000
5.721334931641462e-003	2.229321e+000	1.937660e+000
5.731018579553557e-003	2.151851e+000	2.369354e+000
5.746106567992496e-003	2.031147e+000	2.955720e+000
5.760830130005424e-003	1.913359e+000	3.381636e+000
5.790277254031280e-003	1.677782e+000	3.877867e+000
5.808339449663537e-003	1.533284e+000	3.993955e+000
5.817615485018485e-003	1.459076e+000	3.999954e+000
5.827316476032352e-003	1.381468e+000	3.999992e+000
5.846718458060084e-003	1.226252e+000	3.999954e+000
