time	V(in)	V(out)
0.000000000000000e+000	0.000000e+000	5.000000e+000
1.953124995068833e-009	1.953125e-005	5.000000e+000
3.906249990137667e-009	3.906250e-005	5.000002e+000
7.812499980275334e-009	7.812500e-005	5.000006e+000
1.562499996055067e-008	1.562500e-004	5.000013e+000
1.562499996055067e-007	1.562500e-003	5.000034e+000
2.968749992504628e-007	2.968750e-003	5.000049e+000
4.374999988954188e-007	4.375000e-003	5.000059e+000
5.781249985403749e-007	5.781250e-003	5.000064e+000
7.187499981853309e-007	7.187500e-003	5.000064e+000
8.593749978302870e-007	8.593750e-003	5.000059e+000
9.999999974752427e-007	1.000000e-002	5.000049e+000
1.279999996768311e-004	1.280000e+000	5.000049e+000
1.596689078951659e-004	1.596689e+000	4.942441e+000
1.776404395743915e-004	1.776404e+000	4.761652e+000
1.890368225854482e-004	1.890368e+000	4.483122e+000
2.001479237257105e-004	2.001479e+000	4.035628e+000
2.223701260062352e-004	2.223701e+000	2.812611e+000
2.506132436128640e-004	2.506132e+000	1.067574e+000
2.582322212499266e-004	2.582322e+000	7.384012e-001
2.649967534218766e-004	2.649967e+000	6.137399e-001
2.689083672429027e-004	2.689084e+000	5.729061e-001
2.737953210636661e-004	2.737953e+000	5.348503e-001
2.835692287051930e-004	2.835692e+000	4.751328e-001
2.933028641902428e-004	2.933029e+000	4.295549e-001
3.088593243657397e-004	3.088593e+000	3.750842e-001
3.241084076355943e-004	3.241084e+000	3.341871e-001
3.416270820090944e-004	3.416271e+000	2.968812e-001
3.550515199360509e-004	3.550515e+000	2.741709e-001
3.603308775334870e-004	3.603309e+000	2.664961e-001
3.656102351309232e-004	3.656102e+000	2.592484e-001
3.708895927283594e-004	3.708896e+000	2.524279e-001
3.761689503257955e-004	3.761689e+000	2.460344e-001
3.814483079232316e-004	3.814483e+000	2.400680e-001
3.867276655206678e-004	3.867277e+000	2.345287e-001
3.920070231181039e-004	3.920070e+000	2.294165e-001
4.255395346376254e-004	4.255395e+000	1.991160e-001
4.369714071059151e-004	4.369714e+000	1.904350e-001
4.598351520424947e-004	4.598351e+000	1.762905e-001
5.000000001000000e-004	5.000000e+000	1.545437e-001
5.000007491999970e-004	4.999993e+000	1.545375e-001
5.000014982999941e-004	4.999985e+000	1.545323e-001
5.000022473999911e-004	4.999978e+000	1.545279e-001
5.000029964999880e-004	4.999970e+000	1.545246e-001
5.000037455999850e-004	4.999963e+000	1.545221e-001
5.000044946999821e-004	4.999955e+000	1.545206e-001
5.000052437999791e-004	4.999948e+000	1.545200e-001
5.000104866799581e-004	4.999895e+000	1.545164e-001
5.000209724399162e-004	4.999790e+000	1.545187e-001
5.172399861394456e-004	4.827600e+000	1.628095e-001
5.344589998389749e-004	4.655410e+000	1.725808e-001
5.516780135385042e-004	4.483220e+000	1.838326e-001
5.688970272380335e-004	4.311030e+000	1.965649e-001
5.861160409375628e-004	4.138840e+000	2.107776e-001
6.033350546370921e-004	3.966649e+000	2.264709e-001
6.205540683366215e-004	3.794459e+000	2.436446e-001
6.398240155582811e-004	3.601760e+000	2.673454e-001
6.540548020430338e-004	3.459452e+000	2.887888e-001
6.584360725049480e-004	3.415639e+000	2.962364e-001
6.628173429668622e-004	3.371827e+000	3.043476e-001
6.671986134287763e-004	3.328014e+000	3.131224e-001
6.715798838906904e-004	3.284201e+000	3.225608e-001
6.759611543526046e-004	3.240388e+000	3.326629e-001
6.803424248145188e-004	3.196576e+000	3.434286e-001
6.847236952764329e-004	3.152763e+000	3.548579e-001
6.970605965865104e-004	3.029394e+000	3.955793e-001
7.187230707420239e-004	2.812769e+000	4.982975e-001
7.342828206606244e-004	2.657172e+000	6.165174e-001
7.422040951501497e-004	2.577959e+000	7.293334e-001
7.478252894460674e-004	2.521747e+000	9.091531e-001
7.519572660934375e-004	2.480427e+000	1.150681e+000
7.592196737935514e-004	2.407803e+000	1.673168e+000
7.666479123719466e-004	2.333521e+000	2.182883e+000
7.776282098306354e-004	2.223718e+000	2.882792e+000
7.900677040897500e-004	2.099323e+000	3.579829e+000
8.040154824397994e-004	1.959845e+000	4.186022e+000
8.255550519613154e-004	1.744449e+000	4.723636e+000
8.555318600540305e-004	1.444681e+000	4.982336e+000
8.676614312511218e-004	1.323386e+000	4.999949e+000
9.603350570830675e-004	3.966495e-001	4.999949e+000
1.000000001000000e-003	0.000000e+000	4.998835e+000
1.001101066123108e-003	1.101065e-002	4.999631e+000
1.003303196369324e-003	3.303196e-002	5.000048e+000
1.069367103755806e-003	6.936710e-001	5.000049e+000
1.139835271634721e-003	1.398353e+000	4.984070e+000
1.168784751185990e-003	1.687847e+000	4.864841e+000
1.184574488531127e-003	1.845745e+000	4.587798e+000
1.199621871973210e-003	1.996219e+000	4.050668e+000
1.217637274543363e-003	2.176373e+000	3.105233e+000
1.247325623806955e-003	2.473256e+000	1.245342e+000
1.255497864782558e-003	2.554979e+000	8.069589e-001
1.259780615235162e-003	2.597806e+000	6.801083e-001
1.263050117093161e-003	2.630501e+000	6.337392e-001
1.266996012957647e-003	2.669960e+000	5.916699e-001
1.273541999999323e-003	2.735420e+000	5.374276e-001
1.282060388673530e-003	2.820604e+000	4.828271e-001
1.291347994039169e-003	2.913480e+000	4.378359e-001
1.306622747506850e-003	3.066227e+000	3.823359e-001
1.323217166966610e-003	3.232172e+000	3.353026e-001
1.331939235552489e-003	3.319392e+000	3.154284e-001
1.346999215232917e-003	3.469992e+000	2.870556e-001
1.353163993284844e-003	3.531640e+000	2.771757e-001
1.359328771336770e-003	3.593288e+000	2.679365e-001
1.365493549388696e-003	3.654935e+000	2.593379e-001
1.371658327440623e-003	3.716583e+000	2.513799e-001
1.377823105492549e-003	3.778231e+000	2.440626e-001
1.383987883544475e-003	3.839879e+000	2.373859e-001
1.390152661596402e-003	3.901527e+000	2.313499e-001
1.423109214399109e-003	4.231092e+000	2.009753e-001
1.434086895394588e-003	4.340869e+000	1.924601e-001
1.456089277018085e-003	4.560893e+000	1.776381e-001
1.462362243569787e-003	4.623623e+000	1.739855e-001
1.468635210121490e-003	4.686352e+000	1.704506e-001
1.474908176673192e-003	4.749082e+000	1.670336e-001
1.481181143224894e-003	4.811812e+000	1.637343e-001
1.487454109776597e-003	4.874541e+000	1.605528e-001
1.493727076328299e-003	4.937270e+000	1.574891e-001
1.500000042880002e-003	5.000000e+000	1.545433e-001
1.500000786011427e-003	4.999992e+000	1.545371e-001
1.500001529142853e-003	4.999985e+000	1.545319e-001
1.500002272274279e-003	4.999977e+000	1.545277e-001
1.500003015405704e-003	4.999970e+000	1.545243e-001
1.500003758537130e-003	4.999963e+000	1.545219e-001
1.500004501668556e-003	4.999955e+000	1.545204e-001
1.500005244799981e-003	4.999948e+000	1.545198e-001
1.500010487679960e-003	4.999895e+000	1.545163e-001
1.500020973439918e-003	4.999790e+000	1.545186e-001
1.517313044140700e-003	4.826870e+000	1.628439e-001
1.534605114841481e-003	4.653949e+000	1.726687e-001
1.551897185542263e-003	4.481028e+000	1.839931e-001
1.569189256243044e-003	4.308108e+000	1.968172e-001
1.586481326943826e-003	4.135187e+000	2.111409e-001
1.603773397644607e-003	3.962266e+000	2.269641e-001
1.621065468345389e-003	3.789345e+000	2.442870e-001
1.640432094849328e-003	3.595679e+000	2.682315e-001
1.654474780791424e-003	3.455252e+000	2.894947e-001
1.659434964807919e-003	3.405650e+000	2.979360e-001
1.664395148824414e-003	3.356049e+000	3.072842e-001
1.669355332840910e-003	3.306447e+000	3.175392e-001
1.674315516857405e-003	3.256845e+000	3.287010e-001
1.679275700873900e-003	3.207243e+000	3.407696e-001
1.684235884890395e-003	3.157641e+000	3.537451e-001
1.689196068906891e-003	3.108039e+000	3.676274e-001
1.702574221673539e-003	2.974258e+000	4.161029e-001
1.722315932084941e-003	2.776841e+000	5.203617e-001
1.736474401067196e-003	2.635256e+000	6.417878e-001
1.743713749923188e-003	2.562863e+000	7.688696e-001
1.749016925637155e-003	2.509831e+000	9.827600e-001
1.755117179105781e-003	2.448828e+000	1.378002e+000
1.759127114173486e-003	2.408729e+000	1.667628e+000
1.763639827324593e-003	2.363602e+000	1.982157e+000
1.772665253626807e-003	2.273347e+000	2.573079e+000
1.786673806516641e-003	2.133262e+000	3.393865e+000
1.801181529104362e-003	1.988185e+000	4.077322e+000
1.820382973732103e-003	1.796170e+000	4.670089e+000
1.840212973789566e-003	1.597870e+000	4.956464e+000
1.852725369800474e-003	1.472746e+000	4.999951e+000
1.945409696818925e-003	5.459030e-001	4.999951e+000
2.000000002000002e-003	2.664535e-015	5.000977e+000
2.001100581875149e-003	1.100580e-002	5.000368e+000
2.003301741625443e-003	3.301740e-002	5.000049e+000
2.069336534134272e-003	6.933653e-001	5.000049e+000
2.139773646143690e-003	1.397736e+000	4.985373e+000
2.168405426402485e-003	1.684054e+000	4.869527e+000
2.184358487980812e-003	1.843585e+000	4.592254e+000
2.199597877560044e-003	1.995979e+000	4.052451e+000
2.217119850246536e-003	2.171198e+000	3.136925e+000
2.246866883668743e-003	2.468669e+000	1.269888e+000
2.255067218475872e-003	2.550672e+000	8.207777e-001
2.259433472214836e-003	2.594335e+000	6.859835e-001
2.262741874982804e-003	2.627419e+000	6.376165e-001
2.266683920839310e-003	2.666839e+000	5.946685e-001
2.272865257289079e-003	2.728652e+000	5.423878e-001
2.281389589964942e-003	2.813896e+000	4.865507e-001
2.290203268482945e-003	2.902033e+000	4.429346e-001
2.306213332081974e-003	3.062133e+000	3.839745e-001
2.323250555435693e-003	3.232506e+000	3.353188e-001
2.332367417583626e-003	3.323674e+000	3.143502e-001
2.346082088036743e-003	3.460821e+000	2.885544e-001
2.354245698600331e-003	3.542457e+000	2.755992e-001
2.362409309163919e-003	3.624093e+000	2.636613e-001
2.370572919727507e-003	3.705729e+000	2.527407e-001
2.378736530291095e-003	3.787365e+000	2.428375e-001
2.386900140854683e-003	3.869001e+000	2.339515e-001
2.395063751418271e-003	3.950638e+000	2.260828e-001
2.403227361981859e-003	4.032274e+000	2.192315e-001
2.449193078965723e-003	4.491931e+000	1.846745e-001
2.500000002100004e-003	5.000000e+000	1.545531e-001
2.500000025622861e-003	5.000000e+000	1.545528e-001
2.500000049145718e-003	4.999999e+000	1.545525e-001
2.500000072668575e-003	4.999999e+000	1.545522e-001
2.500000096191432e-003	4.999999e+000	1.545519e-001
2.500000119714289e-003	4.999999e+000	1.545515e-001
2.500000143237146e-003	4.999999e+000	1.545512e-001
2.500000166760003e-003	4.999999e+000	1.545509e-001
2.500001313639999e-003	4.999987e+000	1.545390e-001
2.500002624359993e-003	4.999974e+000	1.545305e-001
2.500005245799983e-003	4.999948e+000	1.545217e-001
2.500010488679962e-003	4.999895e+000	1.545168e-001
2.500020974439920e-003	4.999790e+000	1.545187e-001
2.517237938849602e-003	4.827620e+000	1.628085e-001
2.534454903259283e-003	4.655451e+000	1.725783e-001
2.551671867668965e-003	4.483281e+000	1.838281e-001
2.568888832078646e-003	4.311111e+000	1.965578e-001
2.586105796488327e-003	4.138942e+000	2.107674e-001
2.603322760898009e-003	3.966772e+000	2.264570e-001
2.620539725307690e-003	3.794603e+000	2.436265e-001
2.639805597887654e-003	3.601944e+000	2.673187e-001
2.654053322982795e-003	3.459467e+000	2.887869e-001
2.658500912216660e-003	3.414991e+000	2.963436e-001
2.662948501450524e-003	3.370515e+000	3.045910e-001
2.667396090684389e-003	3.326039e+000	3.135292e-001
2.671843679918253e-003	3.281563e+000	3.231582e-001
2.676291269152118e-003	3.237087e+000	3.334780e-001
2.680738858385982e-003	3.192612e+000	3.444886e-001
2.685186447619847e-003	3.148136e+000	3.561900e-001
2.697942248987997e-003	3.020577e+000	3.993515e-001
2.720656130388798e-003	2.793439e+000	5.122100e-001
2.736220800623392e-003	2.637792e+000	6.409850e-001
2.743931547682821e-003	2.560684e+000	7.808520e-001
2.749456507650181e-003	2.505435e+000	1.010616e+000
2.755396734683033e-003	2.446033e+000	1.398409e+000
2.759401435912829e-003	2.405986e+000	1.687054e+000
2.764189306936653e-003	2.358107e+000	2.019473e+000
2.773765048984299e-003	2.262350e+000	2.643717e+000
2.786817909334198e-003	2.131821e+000	3.404938e+000
2.801051094901261e-003	1.989489e+000	4.075157e+000
2.819669034087836e-003	1.803310e+000	4.659003e+000
2.839134567076072e-003	1.608654e+000	4.950995e+000
2.852322953931300e-003	1.476771e+000	4.999844e+000
2.864456260822288e-003	1.355437e+000	4.999950e+000
2.946137250160434e-003	5.386275e-001	4.999951e+000
3.000000003000004e-003	0.000000e+000	5.000584e+000
3.001100635318557e-003	1.100632e-002	5.000233e+000
3.003301899955662e-003	3.301897e-002	5.000049e+000
3.069339839068831e-003	6.933984e-001	5.000049e+000
3.139780307456211e-003	1.397803e+000	4.985178e+000
3.168463496765039e-003	1.684635e+000	4.868845e+000
3.184386739174090e-003	1.843867e+000	4.591756e+000
3.199590000644679e-003	1.995900e+000	4.052691e+000
3.217188500321387e-003	2.171885e+000	3.132672e+000
3.246925984091234e-003	2.469260e+000	1.266782e+000
3.255126799308809e-003	2.551268e+000	8.188691e-001
3.259482116814485e-003	2.594821e+000	6.851489e-001
3.262785252579275e-003	2.627852e+000	6.370659e-001
3.266727585633263e-003	2.667276e+000	5.942452e-001
3.272956928328516e-003	2.729569e+000	5.417094e-001
3.281484974346341e-003	2.814850e+000	4.860173e-001
3.290360731784487e-003	2.903607e+000	4.422231e-001
3.306263331597582e-003	3.062633e+000	3.837674e-001
3.323246536685978e-003	3.232465e+000	3.353170e-001
3.332316529069272e-003	3.323165e+000	3.144563e-001
3.346185233723683e-003	3.461852e+000	2.883826e-001
3.351312981323619e-003	3.513130e+000	2.800148e-001
3.356440728923555e-003	3.564407e+000	2.721157e-001
3.361568476523491e-003	3.615685e+000	2.646853e-001
3.366696224123427e-003	3.666962e+000	2.577236e-001
3.371823971723363e-003	3.718240e+000	2.512307e-001
3.376951719323299e-003	3.769517e+000	2.452065e-001
3.382079466923235e-003	3.820795e+000	2.396510e-001
3.406893751199159e-003	4.068937e+000	2.158778e-001
3.450371434448158e-003	4.503714e+000	1.836644e-001
3.500000003100006e-003	5.000000e+000	1.545543e-001
3.500000050028557e-003	5.000000e+000	1.545536e-001
3.500000096957108e-003	4.999999e+000	1.545530e-001
3.500000143885659e-003	4.999999e+000	1.545523e-001
3.500000190814210e-003	4.999998e+000	1.545517e-001
3.500000237742760e-003	4.999998e+000	1.545511e-001
3.500000284671311e-003	4.999997e+000	1.545505e-001
3.500000331599862e-003	4.999997e+000	1.545499e-001
3.500001314639432e-003	4.999987e+000	1.545397e-001
3.500002625358858e-003	4.999974e+000	1.545310e-001
3.500005246797711e-003	4.999948e+000	1.545219e-001
3.500010489675416e-003	4.999895e+000	1.545168e-001
3.500020975430827e-003	4.999790e+000	1.545187e-001
3.517222780385652e-003	4.827772e+000	1.628014e-001
3.534424585340478e-003	4.655754e+000	1.725602e-001
3.551626390295304e-003	4.483736e+000	1.837949e-001
3.568828195250130e-003	4.311718e+000	1.965056e-001
3.586030000204955e-003	4.139700e+000	2.106922e-001
3.603231805159781e-003	3.967682e+000	2.263549e-001
3.620433610114607e-003	3.795664e+000	2.434935e-001
3.639677401661902e-003	3.603226e+000	2.671326e-001
3.654025005666694e-003	3.459750e+000	2.887457e-001
3.659550929766735e-003	3.404491e+000	2.980256e-001
3.665076853866775e-003	3.349231e+000	3.085670e-001
3.670602777966816e-003	3.293972e+000	3.203699e-001
3.676128702066857e-003	3.238713e+000	3.334342e-001
3.681654626166898e-003	3.183454e+000	3.477600e-001
3.687180550266939e-003	3.128195e+000	3.633472e-001
3.692706474366980e-003	3.072935e+000	3.801959e-001
3.711729750990972e-003	2.882703e+000	4.583224e-001
3.728803373580656e-003	2.711966e+000	5.646099e-001
3.738659441041225e-003	2.613406e+000	6.670185e-001
3.744936464351645e-003	2.550635e+000	8.005016e-001
3.749614864074310e-003	2.503851e+000	1.008690e+000
3.754487669805332e-003	2.455123e+000	1.332634e+000
3.758164071349985e-003	2.418359e+000	1.598951e+000
3.762592356245946e-003	2.374076e+000	1.909557e+000
3.771448926037869e-003	2.285511e+000	2.496035e+000
3.784697122836227e-003	2.153029e+000	3.286910e+000
3.799155463377337e-003	2.008446e+000	3.990211e+000
3.818548244297646e-003	1.814518e+000	4.631305e+000
3.837543561078726e-003	1.624564e+000	4.939281e+000
3.852399845756767e-003	1.476002e+000	4.999155e+000
3.864357496507267e-003	1.356425e+000	4.999951e+000
3.945869805624034e-003	5.413020e-001	4.999951e+000
4.000000004000005e-003	4.440892e-015	5.000185e+000
4.001100678578807e-003	1.100675e-002	5.000095e+000
4.003302027736410e-003	3.302024e-002	5.000049e+000
4.069342502464497e-003	6.934250e-001	5.000049e+000
4.139785675507791e-003	1.397857e+000	4.984955e+000
4.168529076863514e-003	1.685291e+000	4.868038e+000
4.184423325042025e-003	1.844233e+000	4.591021e+000
4.199591308060957e-003	1.995913e+000	4.052510e+000
4.217275172409697e-003	2.172752e+000	3.127355e+000
4.247003111830338e-003	2.470031e+000	1.262669e+000
4.255200599959280e-003	2.552006e+000	8.164948e-001
4.259542188614387e-003	2.595422e+000	6.841232e-001
4.262838457096828e-003	2.628385e+000	6.363925e-001
4.266780983400249e-003	2.667810e+000	5.937290e-001
4.273070446378985e-003	2.730704e+000	5.408725e-001
4.281601575930524e-003	2.816016e+000	4.853671e-001
4.290554723196510e-003	2.905547e+000	4.413509e-001
4.306328836642141e-003	3.063288e+000	3.835010e-001
4.323243657079803e-003	3.232436e+000	3.353168e-001
4.332302539298116e-003	3.323025e+000	3.144857e-001
4.346189381773525e-003	3.461894e+000	2.883757e-001
4.351344858537317e-003	3.513449e+000	2.799651e-001
4.356500335301108e-003	3.565003e+000	2.720277e-001
4.361655812064900e-003	3.616558e+000	2.645636e-001
4.366811288828691e-003	3.668113e+000	2.575727e-001
4.371966765592482e-003	3.719668e+000	2.510552e-001
4.377122242356274e-003	3.771222e+000	2.450109e-001
4.382277719120065e-003	3.822777e+000	2.394398e-001
4.407319926047780e-003	4.073199e+000	2.154723e-001
4.449915590144579e-003	4.499156e+000	1.839253e-001
4.500000004100007e-003	5.000000e+000	1.545529e-001
4.500000051028599e-003	5.000000e+000	1.545523e-001
4.500000097957191e-003	4.999999e+000	1.545516e-001
4.500000144885782e-003	4.999999e+000	1.545510e-001
4.500000191814374e-003	4.999998e+000	1.545504e-001
4.500000238742965e-003	4.999998e+000	1.545498e-001
4.500000285671557e-003	4.999997e+000	1.545492e-001
4.500000332600149e-003	4.999997e+000	1.545486e-001
4.500001315640571e-003	4.999987e+000	1.545389e-001
4.500002626361134e-003	4.999974e+000	1.545304e-001
4.500005247802261e-003	4.999948e+000	1.545217e-001
4.500010490684514e-003	4.999895e+000	1.545168e-001
4.500020976449019e-003	4.999790e+000	1.545187e-001
4.517222018304478e-003	4.827780e+000	1.628011e-001
4.534423060159938e-003	4.655769e+000	1.725592e-001
4.551624102015397e-003	4.483759e+000	1.837932e-001
4.568825143870856e-003	4.311749e+000	1.965030e-001
4.586026185726315e-003	4.139738e+000	2.106885e-001
4.603227227581774e-003	3.967728e+000	2.263498e-001
4.620428269437233e-003	3.795717e+000	2.434869e-001
4.639671779834283e-003	3.603282e+000	2.671245e-001
4.654030612159654e-003	3.459694e+000	2.887556e-001
4.659633024955453e-003	3.403670e+000	2.981536e-001
4.665235437751253e-003	3.347646e+000	3.088652e-001
4.670837850547053e-003	3.291622e+000	3.208903e-001
4.676440263342853e-003	3.235598e+000	3.342289e-001
4.682042676138653e-003	3.179573e+000	3.488811e-001
4.687645088934453e-003	3.123549e+000	3.648468e-001
4.693247501730252e-003	3.067525e+000	3.821261e-001
4.712706936317116e-003	2.872931e+000	4.634702e-001
4.729608015839631e-003	2.703920e+000	5.710596e-001
4.738981614345302e-003	2.610184e+000	6.713379e-001
4.745165314056955e-003	2.548347e+000	8.076542e-001
4.749774576580116e-003	2.502254e+000	1.017332e+000
4.754477046386162e-003	2.455230e+000	1.331880e+000
4.758224066467275e-003	2.417759e+000	1.603212e+000
4.762677425886417e-003	2.373226e+000	1.915431e+000
4.771584144724702e-003	2.284159e+000	2.505122e+000
4.784550827892514e-003	2.154492e+000	3.280019e+000
4.798783166740260e-003	2.012168e+000	3.972226e+000
4.818912704036438e-003	1.810873e+000	4.632104e+000
4.838662424349880e-003	1.613376e+000	4.944226e+000
4.853293892195133e-003	1.467061e+000	4.999705e+000
4.865915491770167e-003	1.340845e+000	4.999951e+000
4.944423340987290e-003	5.557666e-001	4.999951e+000
5.000000005000008e-003	0.000000e+000	5.000055e+000
5.001100671831835e-003	1.100667e-002	5.000051e+000
5.003302005495488e-003	3.302000e-002	5.000049e+000
5.069342015405090e-003	6.934201e-001	5.000049e+000
5.139784692641997e-003	1.397847e+000	4.984893e+000
5.168547521559461e-003	1.685475e+000	4.867819e+000
5.184431858094279e-003	1.844319e+000	4.590876e+000
5.199588477691548e-003	1.995885e+000	4.052603e+000
5.217296134962269e-003	2.172961e+000	3.126052e+000
